time	V(n002)	I(Re)	I(Rs)
0.000000000000000e+00	0.000000e+00	0.000000e+00	0.000000e+00
1.872457089900439e-05	8.832024e-05	1.148206e-08	1.170286e-08
3.744914179800878e-05	1.929395e-04	2.292337e-08	2.340571e-08
5.617371269701317e-05	3.138578e-04	3.432393e-08	3.510857e-08
7.489828359601756e-05	4.510752e-04	4.568374e-08	4.681143e-08
9.362285449502195e-05	6.045915e-04	5.700281e-08	5.851429e-08
1.123474253940263e-04	7.744070e-04	6.828112e-08	7.021714e-08
1.310719962930307e-04	9.605214e-04	7.951869e-08	8.192000e-08
2.621439925860614e-04	2.561228e-03	1.574369e-07	1.638400e-07
4.000000000000000e-04	4.663752e-03	2.383406e-07	2.500000e-07
7.922637873029871e-04	1.018637e-02	2.245341e-07	2.500000e-07
1.184527574605974e-03	1.542957e-02	2.114260e-07	2.500000e-07
1.576791361908961e-03	2.039336e-02	1.990166e-07	2.500000e-07
1.969055149211948e-03	2.507773e-02	1.873056e-07	2.500000e-07
2.361318936514936e-03	2.948268e-02	1.762932e-07	2.500000e-07
2.753582723817923e-03	3.360822e-02	1.659794e-07	2.500000e-07
3.145846511120909e-03	3.745434e-02	1.563641e-07	2.499999e-07
3.325011295246494e-03	3.914826e-02	1.521293e-07	2.499999e-07
3.504176079372078e-03	4.079993e-02	1.480001e-07	2.499999e-07
3.683340863497662e-03	4.240935e-02	1.439766e-07	2.499999e-07
3.862505647623247e-03	4.397652e-02	1.400586e-07	2.499999e-07
4.041670431748832e-03	4.550144e-02	1.362463e-07	2.499999e-07
4.220835215874416e-03	4.698411e-02	1.325396e-07	2.499999e-07
4.400000000000000e-03	4.842454e-02	1.289386e-07	2.499999e-07
4.457142857142857e-03	4.855626e-02	9.289497e-08	2.142856e-07
4.514285714285715e-03	4.856815e-02	5.715095e-08	1.785713e-07
4.571428571428572e-03	4.846022e-02	2.170650e-08	1.428570e-07
4.628571428571429e-03	4.823246e-02	-1.343839e-08	1.071428e-07
4.685714285714286e-03	4.788488e-02	-4.828373e-08	7.142847e-08
4.742857142857143e-03	4.741747e-02	-8.282949e-08	3.571419e-08
4.800000000000000e-03	4.683024e-02	-1.170757e-07	-9.796885e-14
5.412154939682474e-03	4.270507e-02	-1.067628e-07	-8.552857e-14
6.024309879364947e-03	3.887991e-02	-9.719985e-08	-7.446515e-14
6.636464819047420e-03	3.535476e-02	-8.838697e-08	-6.477862e-14
7.248619758729894e-03	3.212963e-02	-8.032413e-08	-5.646896e-14
7.860774698412367e-03	2.920451e-02	-7.301132e-08	-4.953617e-14
8.472929638094840e-03	2.657940e-02	-6.644855e-08	-4.398027e-14
9.085084577777312e-03	2.425431e-02	-6.063581e-08	-3.980123e-14
9.726825649205881e-03	2.202100e-02	-5.505253e-08	-3.554055e-14
1.036856672063445e-02	1.995648e-02	-4.989122e-08	-3.167014e-14
1.101030779206302e-02	1.806075e-02	-4.515190e-08	-2.819001e-14
1.165204886349159e-02	1.633381e-02	-4.083454e-08	-2.510014e-14
1.229378993492016e-02	1.477565e-02	-3.693916e-08	-2.240055e-14
1.293553100634873e-02	1.338629e-02	-3.346575e-08	-2.009123e-14
1.357727207777730e-02	1.216572e-02	-3.041432e-08	-1.817218e-14
1.424691493492015e-02	1.100103e-02	-2.750259e-08	-1.631759e-14
1.491655779206301e-02	9.927243e-03	-2.481812e-08	-1.462037e-14
1.558620064920586e-02	8.944359e-03	-2.236091e-08	-1.308052e-14
1.625584350634872e-02	8.052380e-03	-2.013096e-08	-1.169805e-14
1.692548636349157e-02	7.251305e-03	-1.812827e-08	-1.047294e-14
1.759512922063443e-02	6.541133e-03	-1.635284e-08	-9.405213e-15
1.826477207777728e-02	5.921865e-03	-1.480467e-08	-8.494854e-15
1.901812029206299e-02	5.291098e-03	-1.322775e-08	-7.564796e-15
1.977146850634870e-02	4.714043e-03	-1.178512e-08	-6.716753e-15
2.052481672063441e-02	4.190703e-03	-1.047676e-08	-5.950723e-15
2.127816493492013e-02	3.721076e-03	-9.302695e-09	-5.266707e-15
2.203151314920584e-02	3.305162e-03	-8.262911e-09	-4.664706e-15
2.278486136349155e-02	2.942963e-03	-7.357411e-09	-4.144719e-15
2.353820957777726e-02	2.634476e-03	-6.586195e-09	-3.706746e-15
2.445896850634869e-02	2.299347e-03	-5.748371e-09	-3.230061e-15
2.537972743492011e-02	1.997093e-03	-4.992735e-09	-2.800744e-15
2.630048636349154e-02	1.727714e-03	-4.319287e-09	-2.418797e-15
2.722124529206296e-02	1.491210e-03	-3.728027e-09	-2.084218e-15
2.814200422063439e-02	1.287581e-03	-3.218955e-09	-1.797008e-15
2.906276314920581e-02	1.116828e-03	-2.792071e-09	-1.557168e-15
2.998352207777724e-02	9.789495e-04	-2.447375e-09	-1.364696e-15
3.126700422063439e-02	8.143984e-04	-2.035997e-09	-1.134531e-15
3.255048636349155e-02	6.698094e-04	-1.674524e-09	-9.323860e-16
3.383396850634871e-02	5.451825e-04	-1.362957e-09	-7.582623e-16
3.511745064920587e-02	4.405178e-04	-1.101295e-09	-6.121595e-16
3.640093279206303e-02	3.558152e-04	-8.895385e-10	-4.940776e-16
3.768441493492018e-02	2.910748e-04	-7.276874e-10	-4.040165e-16
3.896789707777734e-02	2.462965e-04	-6.157417e-10	-3.419763e-16
4.000000000000000e-02	2.101431e-04	-5.253581e-10	-2.917215e-16
4.003332425333359e-02	3.838300e-04	1.986808e-08	2.082766e-08
4.007775659111171e-02	6.749062e-04	4.691060e-08	4.859787e-08
4.012455172377529e-02	1.071402e-03	7.516633e-08	7.784482e-08
4.021814198910245e-02	2.178640e-03	1.308921e-07	1.363387e-07
4.040000000000000e-02	4.862724e-03	2.378432e-07	2.500000e-07
4.080169278804948e-02	1.050043e-02	2.237489e-07	2.500000e-07
4.120338557609896e-02	1.584707e-02	2.103823e-07	2.500000e-07
4.160507836414844e-02	2.090264e-02	1.977434e-07	2.500000e-07
4.200677115219791e-02	2.566715e-02	1.858321e-07	2.500000e-07
4.240846394024739e-02	3.014060e-02	1.746484e-07	2.500000e-07
4.281015672829688e-02	3.432298e-02	1.641925e-07	2.499999e-07
4.321184951634635e-02	3.821430e-02	1.544642e-07	2.499999e-07
4.338158529972545e-02	3.980114e-02	1.504971e-07	2.499999e-07
4.355132108310453e-02	4.135036e-02	1.466240e-07	2.499999e-07
4.372105686648363e-02	4.286196e-02	1.428450e-07	2.499999e-07
4.389079264986272e-02	4.433593e-02	1.391601e-07	2.499999e-07
4.406052843324181e-02	4.577228e-02	1.355692e-07	2.499999e-07
4.423026421662090e-02	4.717101e-02	1.320724e-07	2.499999e-07
4.440000000000000e-02	4.853211e-02	1.286696e-07	2.499999e-07
4.445714285714285e-02	4.862343e-02	9.272705e-08	2.142856e-07
4.451428571428571e-02	4.860817e-02	5.705090e-08	1.785713e-07
4.457142857142857e-02	4.848635e-02	2.164118e-08	1.428570e-07
4.462857142857142e-02	4.825795e-02	-1.350213e-08	1.071428e-07
4.468571428571428e-02	4.792299e-02	-4.837901e-08	7.142847e-08
4.474285714285713e-02	4.748146e-02	-8.298947e-08	3.571419e-08
4.479999999999999e-02	4.693336e-02	-1.173335e-07	-9.829151e-14
4.541942079076968e-02	4.275390e-02	-1.068848e-07	-8.568542e-14
4.603884158153938e-02	3.888117e-02	-9.720301e-08	-7.448326e-14
4.665826237230906e-02	3.531519e-02	-8.828803e-08	-6.468504e-14
4.727768316307875e-02	3.205594e-02	-8.013990e-08	-5.629077e-14
4.789710395384845e-02	2.910343e-02	-7.275862e-08	-4.930043e-14
4.851652474461814e-02	2.645766e-02	-6.614419e-08	-4.371403e-14
4.913594553538782e-02	2.411863e-02	-6.029661e-08	-3.953157e-14
4.977768660681640e-02	2.189781e-02	-5.474456e-08	-3.530440e-14
5.041942767824498e-02	1.984484e-02	-4.961213e-08	-3.146393e-14
5.106116874967356e-02	1.795972e-02	-4.489932e-08	-2.801015e-14
5.170290982110215e-02	1.624244e-02	-4.060611e-08	-2.494308e-14
5.234465089253073e-02	1.469300e-02	-3.673252e-08	-2.226270e-14
5.298639196395931e-02	1.331141e-02	-3.327855e-08	-1.996901e-14
5.362813303538789e-02	1.209767e-02	-3.024418e-08	-1.806203e-14
5.429777589253076e-02	1.093949e-02	-2.734874e-08	-1.621946e-14
5.496741874967362e-02	9.871709e-03	-2.467929e-08	-1.453315e-14
5.563706160681649e-02	8.894324e-03	-2.223582e-08	-1.300311e-14
5.630670446395936e-02	8.007334e-03	-2.001835e-08	-1.162934e-14
5.697634732110222e-02	7.210740e-03	-1.802686e-08	-1.041182e-14
5.764599017824509e-02	6.504542e-03	-1.626136e-08	-9.350573e-15
5.831563303538796e-02	5.888739e-03	-1.472185e-08	-8.445588e-15
5.906898124967368e-02	5.261499e-03	-1.315376e-08	-7.521094e-15
5.982232946395941e-02	4.687673e-03	-1.171919e-08	-6.678102e-15
6.057567767824513e-02	4.167260e-03	-1.041816e-08	-5.916613e-15
6.132902589253085e-02	3.700260e-03	-9.250655e-09	-5.236626e-15
6.208237410681658e-02	3.286673e-03	-8.216688e-09	-4.638142e-15
6.283572232110229e-02	2.926500e-03	-7.316253e-09	-4.121160e-15
6.358907053538802e-02	2.619739e-03	-6.549352e-09	-3.685680e-15
6.450982946395946e-02	2.286484e-03	-5.716214e-09	-3.211737e-15
6.543058839253091e-02	1.985921e-03	-4.964805e-09	-2.784886e-15
6.635134732110234e-02	1.718049e-03	-4.295125e-09	-2.405127e-15
6.727210624967379e-02	1.482868e-03	-3.707172e-09	-2.072461e-15
6.819286517824523e-02	1.280379e-03	-3.200948e-09	-1.786888e-15
6.911362410681668e-02	1.110580e-03	-2.776452e-09	-1.548406e-15
7.003438303538811e-02	9.734732e-04	-2.433684e-09	-1.357017e-15
7.131786517824527e-02	8.098426e-04	-2.024608e-09	-1.128153e-15
7.260134732110243e-02	6.660624e-04	-1.665157e-09	-9.271509e-16
7.388482946395961e-02	5.421327e-04	-1.355333e-09	-7.540100e-16
7.516831160681677e-02	4.380535e-04	-1.095135e-09	-6.087306e-16
7.645179374967392e-02	3.538248e-04	-8.845625e-10	-4.913127e-16
7.773527589253108e-02	2.894465e-04	-7.236168e-10	-4.017563e-16
7.901875803538824e-02	2.449187e-04	-6.122972e-10	-3.400614e-16
8.000000000000000e-02	2.106064e-04	-5.265163e-10	-2.923687e-16
8.002246143013639e-02	3.205551e-04	1.323701e-08	1.403839e-08
8.005241000365156e-02	4.971731e-04	3.151332e-08	3.275625e-08
8.009439828571359e-02	8.116357e-04	5.696984e-08	5.899893e-08
8.017837484983767e-02	1.603625e-03	1.074752e-07	1.114843e-07
8.023204687175184e-02	2.228298e-03	1.394585e-07	1.450293e-07
8.029265595617166e-02	3.102074e-03	1.751548e-07	1.829100e-07
8.040000000000000e-02	4.864113e-03	2.378397e-07	2.500000e-07
8.078235950512398e-02	1.024185e-02	2.243954e-07	2.500000e-07
8.116471901024797e-02	1.535337e-02	2.116166e-07	2.500000e-07
8.154707851537195e-02	2.019867e-02	1.995033e-07	2.500000e-07
8.192943802049593e-02	2.477775e-02	1.880556e-07	2.500000e-07
8.231179752561991e-02	2.909060e-02	1.772734e-07	2.500000e-07
8.269415703074390e-02	3.313724e-02	1.671568e-07	2.500000e-07
8.307651653586788e-02	3.691766e-02	1.577058e-07	2.499999e-07
8.326558560217247e-02	3.871814e-02	1.532046e-07	2.499999e-07
8.345465466847705e-02	4.047158e-02	1.488210e-07	2.499999e-07
8.364372373478164e-02	4.217797e-02	1.445550e-07	2.499999e-07
8.383279280108624e-02	4.383731e-02	1.404066e-07	2.499999e-07
8.402186186739083e-02	4.544961e-02	1.363759e-07	2.499999e-07
8.421093093369542e-02	4.701486e-02	1.324627e-07	2.499999e-07
8.440000000000000e-02	4.853307e-02	1.286672e-07	2.499999e-07
8.453671875000000e-02	4.858192e-02	4.309589e-08	1.645507e-07
8.464375000000000e-02	4.811355e-02	-2.262773e-08	9.765615e-08
8.480000000000000e-02	4.692917e-02	-1.173230e-07	-9.827486e-14
8.541941964285715e-02	4.275009e-02	-1.068753e-07	-8.567215e-14
8.603883928571431e-02	3.887772e-02	-9.719436e-08	-7.447284e-14
8.665825892857146e-02	3.531205e-02	-8.828019e-08	-6.467696e-14
8.727767857142860e-02	3.205310e-02	-8.013280e-08	-5.628449e-14
8.789709821428575e-02	2.910086e-02	-7.275219e-08	-4.929544e-14
8.851651785714290e-02	2.645532e-02	-6.613835e-08	-4.370980e-14
8.913593750000005e-02	2.411650e-02	-6.029130e-08	-3.952758e-14
8.977767857142864e-02	2.189588e-02	-5.473974e-08	-3.530082e-14
9.041941964285721e-02	1.984309e-02	-4.960776e-08	-3.146073e-14
9.106116071428580e-02	1.795813e-02	-4.489536e-08	-2.800731e-14
9.170290178571437e-02	1.624100e-02	-4.060254e-08	-2.494056e-14
9.234464285714296e-02	1.469171e-02	-3.672929e-08	-2.226048e-14
9.298638392857153e-02	1.331024e-02	-3.327562e-08	-1.996707e-14
9.362812500000012e-02	1.209660e-02	-3.024152e-08	-1.806033e-14
9.429776785714299e-02	1.093853e-02	-2.734633e-08	-1.621791e-14
9.496741071428585e-02	9.870840e-03	-2.467711e-08	-1.453176e-14
9.563705357142872e-02	8.893541e-03	-2.223386e-08	-1.300186e-14
9.630669642857159e-02	8.006629e-03	-2.001658e-08	-1.162823e-14
9.697633928571445e-02	7.210105e-03	-1.802527e-08	-1.041086e-14
9.764598214285732e-02	6.503969e-03	-1.625993e-08	-9.349758e-15
9.831562500000018e-02	5.888220e-03	-1.472056e-08	-8.444916e-15
9.906897321428591e-02	5.261036e-03	-1.315260e-08	-7.520456e-15
9.982232142857163e-02	4.687260e-03	-1.171816e-08	-6.677505e-15
1.005756696428574e-01	4.166893e-03	-1.041724e-08	-5.916063e-15
1.013290178571431e-01	3.699934e-03	-9.249840e-09	-5.236128e-15
1.020823660714288e-01	3.286384e-03	-8.215964e-09	-4.637703e-15
1.028357142857145e-01	2.926242e-03	-7.315609e-09	-4.120786e-15
1.035890625000003e-01	2.619508e-03	-6.548775e-09	-3.685377e-15
1.045098214285717e-01	2.286283e-03	-5.715711e-09	-3.211463e-15
1.054305803571431e-01	1.985746e-03	-4.964368e-09	-2.784641e-15
1.063513392857146e-01	1.717898e-03	-4.294747e-09	-2.404910e-15
1.072720982142860e-01	1.482737e-03	-3.706846e-09	-2.072271e-15
1.081928571428575e-01	1.280266e-03	-3.200666e-09	-1.786723e-15
1.091136160714289e-01	1.110482e-03	-2.776208e-09	-1.548266e-15
1.100343750000004e-01	9.733875e-04	-2.433470e-09	-1.356901e-15
1.113178571428575e-01	8.097713e-04	-2.024429e-09	-1.128055e-15
1.126013392857147e-01	6.660038e-04	-1.665010e-09	-9.270688e-16
1.138848214285718e-01	5.420850e-04	-1.355213e-09	-7.539421e-16
1.151683035714290e-01	4.380149e-04	-1.095038e-09	-6.086749e-16
1.164517857142862e-01	3.537936e-04	-8.844845e-10	-4.912672e-16
1.177352678571433e-01	2.894210e-04	-7.235530e-10	-4.017189e-16
1.190187500000005e-01	2.448972e-04	-6.122433e-10	-3.400302e-16
1.200000000000000e-01	2.105876e-04	-5.264693e-10	-2.923416e-16
1.200224999999976e-01	3.207505e-04	1.326062e-08	1.406250e-08
1.200524999999944e-01	4.977405e-04	3.156815e-08	3.281250e-08
1.200945014032469e-01	8.124424e-04	5.703227e-08	5.906337e-08
1.201785042097519e-01	1.604890e-03	1.075529e-07	1.115651e-07
1.202319943869901e-01	2.227711e-03	1.394272e-07	1.449965e-07
1.202930196455235e-01	3.107732e-03	1.753679e-07	1.831373e-07
1.204000000000000e-01	4.864103e-03	2.378397e-07	2.500000e-07
1.207821984426967e-01	1.023967e-02	2.244008e-07	2.500000e-07
1.211643968853934e-01	1.534923e-02	2.116269e-07	2.500000e-07
1.215465953280902e-01	2.019276e-02	1.995181e-07	2.500000e-07
1.219287937707869e-01	2.477028e-02	1.880743e-07	2.500000e-07
1.223109922134836e-01	2.908178e-02	1.772955e-07	2.500000e-07
1.226931906561803e-01	3.312726e-02	1.671818e-07	2.500000e-07
1.230753890988770e-01	3.690672e-02	1.577331e-07	2.499999e-07
1.232646192276089e-01	3.870902e-02	1.532274e-07	2.499999e-07
1.234538493563407e-01	4.046418e-02	1.488395e-07	2.499999e-07
1.236430794850726e-01	4.217222e-02	1.445694e-07	2.499999e-07
1.238323096138044e-01	4.383312e-02	1.404171e-07	2.499999e-07
1.240215397425363e-01	4.544690e-02	1.363826e-07	2.499999e-07
1.242107698712681e-01	4.701355e-02	1.324660e-07	2.499999e-07
1.244000000000000e-01	4.853306e-02	1.286672e-07	2.499999e-07
1.245367187500000e-01	4.858191e-02	4.309590e-08	1.645507e-07
1.246437500000000e-01	4.811355e-02	-2.262772e-08	9.765615e-08
1.248000000000000e-01	4.692917e-02	-1.173230e-07	-9.827486e-14
1.254194196428571e-01	4.275009e-02	-1.068753e-07	-8.567213e-14
1.260388392857142e-01	3.887771e-02	-9.719435e-08	-7.447282e-14
1.266582589285713e-01	3.531205e-02	-8.828018e-08	-6.467692e-14
1.272776785714284e-01	3.205310e-02	-8.013279e-08	-5.628446e-14
1.278970982142855e-01	2.910085e-02	-7.275218e-08	-4.929541e-14
1.285165178571426e-01	2.645532e-02	-6.613835e-08	-4.370978e-14
1.291359374999997e-01	2.411650e-02	-6.029129e-08	-3.952758e-14
1.297776785714283e-01	2.189588e-02	-5.473974e-08	-3.530082e-14
1.304194196428568e-01	1.984309e-02	-4.960776e-08	-3.146073e-14
1.310611607142853e-01	1.795813e-02	-4.489536e-08	-2.800731e-14
1.317029017857139e-01	1.624100e-02	-4.060253e-08	-2.494056e-14
1.323446428571424e-01	1.469170e-02	-3.672928e-08	-2.226048e-14
1.329863839285710e-01	1.331024e-02	-3.327561e-08	-1.996707e-14
1.336281249999995e-01	1.209660e-02	-3.024152e-08	-1.806033e-14
1.342977678571423e-01	1.093852e-02	-2.734633e-08	-1.621791e-14
1.349674107142851e-01	9.870839e-03	-2.467711e-08	-1.453176e-14
1.356370535714279e-01	8.893540e-03	-2.223386e-08	-1.300186e-14
1.363066964285708e-01	8.006628e-03	-2.001658e-08	-1.162823e-14
1.369763392857136e-01	7.210104e-03	-1.802527e-08	-1.041086e-14
1.376459821428564e-01	6.503968e-03	-1.625993e-08	-9.349758e-15
1.383156249999992e-01	5.888219e-03	-1.472056e-08	-8.444916e-15
1.390689732142849e-01	5.261035e-03	-1.315260e-08	-7.520456e-15
1.398223214285706e-01	4.687260e-03	-1.171816e-08	-6.677505e-15
1.405756696428562e-01	4.166893e-03	-1.041724e-08	-5.916063e-15
1.413290178571419e-01	3.699934e-03	-9.249839e-09	-5.236128e-15
1.420823660714276e-01	3.286384e-03	-8.215963e-09	-4.637703e-15
1.428357142857133e-01	2.926242e-03	-7.315608e-09	-4.120786e-15
1.435890624999989e-01	2.619508e-03	-6.548774e-09	-3.685377e-15
1.445098214285703e-01	2.286283e-03	-5.715710e-09	-3.211463e-15
1.454305803571417e-01	1.985746e-03	-4.964368e-09	-2.784641e-15
1.463513392857131e-01	1.717897e-03	-4.294746e-09	-2.404910e-15
1.472720982142844e-01	1.482737e-03	-3.706846e-09	-2.072271e-15
1.481928571428558e-01	1.280266e-03	-3.200666e-09	-1.786723e-15
1.491136160714272e-01	1.110482e-03	-2.776207e-09	-1.548266e-15
1.500343749999986e-01	9.733874e-04	-2.433470e-09	-1.356901e-15
1.513178571428556e-01	8.097712e-04	-2.024429e-09	-1.128055e-15
1.526013392857127e-01	6.660037e-04	-1.665010e-09	-9.270688e-16
1.538848214285698e-01	5.420849e-04	-1.355213e-09	-7.539421e-16
1.551683035714268e-01	4.380149e-04	-1.095038e-09	-6.086749e-16
1.564517857142839e-01	3.537936e-04	-8.844845e-10	-4.912672e-16
1.577352678571410e-01	2.894210e-04	-7.235529e-10	-4.017189e-16
1.590187499999980e-01	2.448971e-04	-6.122432e-10	-3.400302e-16
1.600000000000000e-01	2.105876e-04	-5.264692e-10	-2.923416e-16
1.600225000000097e-01	3.207505e-04	1.326062e-08	1.406250e-08
1.600525000000226e-01	4.977405e-04	3.156815e-08	3.281250e-08
1.600945014016654e-01	8.124423e-04	5.703227e-08	5.906337e-08
1.601785042049511e-01	1.604890e-03	1.075529e-07	1.115651e-07
1.602319943934287e-01	2.227711e-03	1.394272e-07	1.449965e-07
1.602930196230448e-01	3.107732e-03	1.753679e-07	1.831373e-07
1.604000000000000e-01	4.864103e-03	2.378397e-07	2.500000e-07
1.607821984526516e-01	1.023967e-02	2.244008e-07	2.500000e-07
1.611643969053032e-01	1.534923e-02	2.116269e-07	2.500000e-07
1.615465953579548e-01	2.019276e-02	1.995181e-07	2.500000e-07
1.619287938106063e-01	2.477028e-02	1.880743e-07	2.500000e-07
1.623109922632579e-01	2.908178e-02	1.772955e-07	2.500000e-07
1.626931907159095e-01	3.312726e-02	1.671818e-07	2.500000e-07
1.630753891685611e-01	3.690673e-02	1.577331e-07	2.499999e-07
1.632646192873381e-01	3.870902e-02	1.532274e-07	2.499999e-07
1.634538494061150e-01	4.046418e-02	1.488395e-07	2.499999e-07
1.636430795248920e-01	4.217222e-02	1.445694e-07	2.499999e-07
1.638323096436690e-01	4.383312e-02	1.404171e-07	2.499999e-07
1.640215397624460e-01	4.544690e-02	1.363826e-07	2.499999e-07
1.642107698812230e-01	4.701355e-02	1.324660e-07	2.499999e-07
1.644000000000000e-01	4.853306e-02	1.286672e-07	2.499999e-07
1.645367187500000e-01	4.858191e-02	4.309590e-08	1.645507e-07
1.646437500000000e-01	4.811355e-02	-2.262772e-08	9.765615e-08
1.648000000000000e-01	4.692917e-02	-1.173230e-07	-9.827486e-14
1.654194196428571e-01	4.275009e-02	-1.068753e-07	-8.567213e-14
1.660388392857143e-01	3.887771e-02	-9.719435e-08	-7.447282e-14
1.666582589285714e-01	3.531205e-02	-8.828018e-08	-6.467692e-14
1.672776785714284e-01	3.205310e-02	-8.013279e-08	-5.628446e-14
1.678970982142856e-01	2.910085e-02	-7.275218e-08	-4.929541e-14
1.685165178571427e-01	2.645532e-02	-6.613835e-08	-4.370978e-14
1.691359374999998e-01	2.411650e-02	-6.029129e-08	-3.952758e-14
1.697776785714283e-01	2.189588e-02	-5.473974e-08	-3.530082e-14
1.704194196428568e-01	1.984309e-02	-4.960776e-08	-3.146073e-14
1.710611607142854e-01	1.795813e-02	-4.489536e-08	-2.800731e-14
1.717029017857139e-01	1.624100e-02	-4.060253e-08	-2.494056e-14
1.723446428571425e-01	1.469170e-02	-3.672928e-08	-2.226048e-14
1.729863839285710e-01	1.331024e-02	-3.327561e-08	-1.996707e-14
1.736281249999995e-01	1.209660e-02	-3.024152e-08	-1.806033e-14
1.741303571428566e-01	1.120958e-02	-2.802396e-08	-1.664253e-14
1.746325892857138e-01	1.037789e-02	-2.594474e-08	-1.532220e-14
1.751348214285709e-01	9.601533e-03	-2.400385e-08	-1.409936e-14
1.756370535714280e-01	8.880508e-03	-2.220128e-08	-1.297398e-14
1.761392857142851e-01	8.214816e-03	-2.053705e-08	-1.194609e-14
